[Running Simulation...]
Reading pref.tcl

# 2021.2_1

# vsim -c -do "run -all; quit" work.testbench "+UVM_TESTNAME=cfs_algn_test_reg_access" "+UVM_VERBOSITY=UVM_MEDIUM" 
# Start time: 12:19:01 on Jun 13,2025
# ** Note: (vsim-8009) Loading existing optimized design _opt
# //  Questa Sim-64
# //  Version 2021.2_1 linux_x86_64 May 15 2021
# //
# //  Copyright 1991-2021 Mentor Graphics Corporation
# //  All Rights Reserved.
# //
# //  QuestaSim and its associated documentation contain trade
# //  secrets and commercial or financial information that are the property of
# //  Mentor Graphics Corporation and are privileged, confidential,
# //  and exempt from disclosure under the Freedom of Information Act,
# //  5 U.S.C. Section 552. Furthermore, this information
# //  is prohibited from disclosure under the Trade Secrets Act,
# //  18 U.S.C. Section 1905.
# //
# Loading sv_std.std
# Loading work.cfs_apb_if(fast)
# Loading mtiUvm.uvm_pkg(fast)
# Loading work.cfs_apb_pkg(fast)
# Loading work.cfs_algn_pkg(fast)
# Loading work.cfs_algn_test_pkg(fast)
# Loading mtiUvm.questa_uvm_pkg(fast)
# Loading work.testbench(fast)
# Loading work.cfs_apb_if(fast__2)
# Loading work.cfs_aligner(fast)
# Loading work.cfs_aligner_core(fast)
# Loading work.cfs_rx_ctrl(fast)
# Loading work.cfs_synch(fast)
# Loading work.cfs_synch_fifo(fast)
# Loading work.cfs_tx_ctrl(fast)
# Loading work.cfs_ctrl(fast)
# Loading work.cfs_regs(fast)
# Loading work.cfs_edge_detect(fast)
# Loading /home/user/Documents/questasim/uvm-1.1d/linux_x86_64/uvm_dpi.so
# run -all
# ----------------------------------------------------------------
# UVM-1.1d
# (C) 2007-2013 Mentor Graphics Corporation
# (C) 2007-2013 Cadence Design Systems, Inc.
# (C) 2006-2013 Synopsys, Inc.
# (C) 2011-2013 Cypress Semiconductor Corp.
# ----------------------------------------------------------------
# 
#   ***********       IMPORTANT RELEASE NOTES         ************
# 
#   You are using a version of the UVM library that has been compiled
#   with `UVM_NO_DEPRECATED undefined.
#   See http://www.eda.org/svdb/view.php?id=3313 for more details.
# 
#   You are using a version of the UVM library that has been compiled
#   with `UVM_OBJECT_MUST_HAVE_CONSTRUCTOR undefined.
#   See http://www.eda.org/svdb/view.php?id=3770 for more details.
# 
#       (Specify +UVM_NO_RELNOTES to turn off this notice)
# 
# UVM_INFO verilog_src/questa_uvm_pkg-1.2/src/questa_uvm_pkg.sv(277) @ 0: reporter [Questa UVM] QUESTA_UVM-1.2.3
# UVM_INFO verilog_src/questa_uvm_pkg-1.2/src/questa_uvm_pkg.sv(278) @ 0: reporter [Questa UVM]  questa_uvm::init(+struct)
# UVM_INFO @ 0: reporter [RNTST] Running test cfs_algn_test_reg_access...
# UVM_INFO ../agent_apb/cfs_apb_driver.sv(43) @ 100: uvm_test_top.env.apb_agent.driver [DEBUG] Driving "uvm_test_top.env.apb_agent.sequencer.seq_simple.item": dir: CFS_APB_WRITE, addr: 0, data: 11, pre_drive_delay: 2, post_drive_delay: 3
# UVM_INFO ../agent_apb/cfs_apb_monitor.sv(84) @ 145: uvm_test_top.env.apb_agent.monitor [DEBUG] Monitored item:: dir: CFS_APB_WRITE, addr: 0, data: 11, response: CFS_APB_OKAY, length: 3, prev_item_delay: 9
# UVM_INFO ../agent_apb/cfs_apb_driver.sv(43) @ 175: uvm_test_top.env.apb_agent.driver [DEBUG] Driving "uvm_test_top.env.apb_agent.sequencer.seq_rw.item": dir: CFS_APB_READ, addr: c, pre_drive_delay: 2, post_drive_delay: 2
# UVM_INFO ../agent_apb/cfs_apb_monitor.sv(84) @ 225: uvm_test_top.env.apb_agent.monitor [DEBUG] Monitored item:: dir: CFS_APB_READ, addr: c, data: 0, response: CFS_APB_OKAY, length: 3, prev_item_delay: 5
# UVM_INFO ../agent_apb/cfs_apb_driver.sv(43) @ 245: uvm_test_top.env.apb_agent.driver [DEBUG] Driving "uvm_test_top.env.apb_agent.sequencer.seq_random.seq.item": dir: CFS_APB_READ, addr: 81b3, pre_drive_delay: 2, post_drive_delay: 1
# UVM_INFO @ 276: uvm_test_top.env.apb_agent.sequencer [uvm_test_top.env.apb_agent.sequencer] Sequences stopped.  Removing request from sequencer fifo
# UVM_INFO ../agent_apb/cfs_apb_driver.sv(43) @ 325: uvm_test_top.env.apb_agent.driver [DEBUG] Driving "uvm_test_top.env.apb_agent.sequencer.seq_random.seq.item": dir: CFS_APB_WRITE, addr: a245, data: bfff4510, pre_drive_delay: 4, post_drive_delay: 5
# UVM_INFO ../agent_apb/cfs_apb_monitor.sv(84) @ 395: uvm_test_top.env.apb_agent.monitor [DEBUG] Monitored item:: dir: CFS_APB_WRITE, addr: a245, data: bfff4510, response: CFS_APB_ERR, length: 3, prev_item_delay: 5
# UVM_INFO ../agent_apb/cfs_apb_driver.sv(43) @ 445: uvm_test_top.env.apb_agent.driver [DEBUG] Driving "uvm_test_top.env.apb_agent.sequencer.seq_random.seq.item": dir: CFS_APB_WRITE, addr: 9e92, data: f8fdfbe, pre_drive_delay: 2, post_drive_delay: 4
# UVM_INFO ../agent_apb/cfs_apb_monitor.sv(84) @ 495: uvm_test_top.env.apb_agent.monitor [DEBUG] Monitored item:: dir: CFS_APB_WRITE, addr: 9e92, data: f8fdfbe, response: CFS_APB_ERR, length: 3, prev_item_delay: 7
# UVM_INFO ../agent_apb/cfs_apb_driver.sv(43) @ 535: uvm_test_top.env.apb_agent.driver [DEBUG] Driving "uvm_test_top.env.apb_agent.sequencer.seq_random.seq.item": dir: CFS_APB_READ, addr: 37a7, pre_drive_delay: 2, post_drive_delay: 2
# UVM_INFO ../agent_apb/cfs_apb_monitor.sv(84) @ 585: uvm_test_top.env.apb_agent.monitor [DEBUG] Monitored item:: dir: CFS_APB_READ, addr: 37a7, data: 0, response: CFS_APB_ERR, length: 3, prev_item_delay: 6
# UVM_INFO ../test/cfs_algn_test_reg_access.sv(88) @ 705: uvm_test_top [DEBUG] this is the end of the test
# UVM_INFO verilog_src/uvm-1.1d/src/base/uvm_objection.svh(1267) @ 705: reporter [TEST_DONE] 'run' phase is ready to proceed to the 'extract' phase
# 
# --- UVM Report Summary ---
# 
# ** Report counts by severity
# UVM_INFO :   17
# UVM_WARNING :    0
# UVM_ERROR :    0
# UVM_FATAL :    0
# ** Report counts by id
# [DEBUG]    12
# [Questa UVM]     2
# [RNTST]     1
# [TEST_DONE]     1
# [uvm_test_top.env.apb_agent.sequencer]     1
# ** Note: $finish    : /home/user/Documents/questasim/linux_x86_64/../verilog_src/uvm-1.1d/src/base/uvm_root.svh(430)
#    Time: 705 ns  Iteration: 54  Instance: /testbench
# End time: 12:19:03 on Jun 13,2025, Elapsed time: 0:00:02
# Errors: 0, Warnings: 0
